(1780770037.908660) vcan0 600#00000000
(1780770037.908708) vcan0 601#00000000
(1780770037.908733) vcan0 602#7F000000
(1780770038.015817) vcan0 600#00000000
(1780770038.015853) vcan0 601#00000000
(1780770038.015872) vcan0 602#7F000000
(1780770038.031714) vcan0 603#00
(1780770038.031741) vcan0 604#00
(1780770038.031759) vcan0 607#00000000
(1780770038.122756) vcan0 600#00000000
(1780770038.122787) vcan0 601#00000000
(1780770038.122806) vcan0 602#7F000000
(1780770038.250435) vcan0 600#00000000
(1780770038.250497) vcan0 601#00000000
(1780770038.250535) vcan0 602#7F000000
(1780770038.250567) vcan0 603#00
(1780770038.250598) vcan0 604#00
(1780770038.250632) vcan0 606#00
(1780770038.250663) vcan0 607#00000000
(1780770038.351808) vcan0 600#00000000
(1780770038.351843) vcan0 601#00000000
(1780770038.351862) vcan0 602#7F000000
(1780770038.461832) vcan0 600#00000000
(1780770038.461872) vcan0 601#00000000
(1780770038.461892) vcan0 602#7F000000
(1780770038.461915) vcan0 603#00
(1780770038.461931) vcan0 604#00
(1780770038.461950) vcan0 607#00000000
(1780770038.587006) vcan0 600#00000000
(1780770038.587065) vcan0 601#00000000
(1780770038.587103) vcan0 602#7F000000
(1780770038.680321) vcan0 603#00
(1780770038.680376) vcan0 604#00
(1780770038.680411) vcan0 607#00000000
(1780770038.695842) vcan0 600#00000000
(1780770038.695880) vcan0 601#00000000
(1780770038.695904) vcan0 602#7F000000
(1780770038.763194) vcan0 606#00
(1780770038.840956) vcan0 600#00000000
(1780770038.841008) vcan0 601#00000000
(1780770038.841040) vcan0 602#7F000000
(1780770038.888787) vcan0 603#00
(1780770038.888838) vcan0 604#00
(1780770038.888863) vcan0 607#00000000
(1780770038.951813) vcan0 600#00000000
(1780770038.951845) vcan0 601#00000000
(1780770038.951865) vcan0 602#7F000000
(1780770039.065815) vcan0 600#00000000
(1780770039.065873) vcan0 601#00000000
(1780770039.065900) vcan0 602#7F000000
(1780770039.108915) vcan0 603#00
(1780770039.108961) vcan0 604#00
(1780770039.108992) vcan0 607#00000000
(1780770039.195974) vcan0 600#00000000
(1780770039.196028) vcan0 601#00000000
(1780770039.196091) vcan0 602#7F000000
(1780770039.272884) vcan0 606#00
(1780770039.304904) vcan0 600#00000000
(1780770039.304956) vcan0 601#00000000
(1780770039.304982) vcan0 602#7F000000
(1780770039.321756) vcan0 603#00
(1780770039.321783) vcan0 604#00
(1780770039.321803) vcan0 607#00000000
(1780770039.411756) vcan0 600#00000000
(1780770039.411789) vcan0 601#00000000
(1780770039.411807) vcan0 602#7F000000
(1780770039.540392) vcan0 600#00000000
(1780770039.540451) vcan0 601#00000000
(1780770039.540490) vcan0 602#7F000000
(1780770039.540529) vcan0 603#00
(1780770039.540562) vcan0 604#00
(1780770039.540598) vcan0 607#00000000
(1780770039.655789) vcan0 600#00000000
(1780770039.655826) vcan0 601#00000000
(1780770039.655845) vcan0 602#7F000000
(1780770039.747753) vcan0 603#00
(1780770039.747785) vcan0 604#00
(1780770039.747807) vcan0 607#00000000
(1780770039.792345) vcan0 600#00000000
(1780770039.792397) vcan0 601#00000000
(1780770039.792422) vcan0 602#7F000000
(1780770039.792457) vcan0 606#00
(1780770039.895824) vcan0 600#00000000
(1780770039.895856) vcan0 601#00000000
(1780770039.895876) vcan0 602#7F000000
(1780770039.974979) vcan0 603#00
(1780770039.975038) vcan0 604#00
(1780770039.975075) vcan0 607#00000000
(1780770040.006777) vcan0 600#00000000
(1780770040.006822) vcan0 601#00000000
(1780770040.006843) vcan0 602#7F000000
(1780770040.139620) vcan0 600#00000000
(1780770040.139675) vcan0 601#00000000
(1780770040.139706) vcan0 602#7F000000
(1780770040.186758) vcan0 603#00
(1780770040.186789) vcan0 604#00
(1780770040.186809) vcan0 607#00000000
(1780770040.249830) vcan0 600#00000000
(1780770040.249877) vcan0 601#00000000
(1780770040.249896) vcan0 602#7F000000
(1780770040.316987) vcan0 606#00
(1780770040.364765) vcan0 600#00000000
(1780770040.364798) vcan0 601#00000000
(1780770040.364818) vcan0 602#7F000000
(1780770040.411608) vcan0 603#00
(1780770040.411651) vcan0 604#00
(1780770040.411683) vcan0 607#00000000
(1780770040.492657) vcan0 600#00000000
(1780770040.492690) vcan0 601#00000000
(1780770040.492709) vcan0 602#7F000000
(1780770040.603798) vcan0 600#00000000
(1780770040.603836) vcan0 601#00000000
(1780770040.603855) vcan0 602#7F000000
(1780770040.619725) vcan0 603#00
(1780770040.619754) vcan0 604#00
(1780770040.619774) vcan0 607#00000000
(1780770040.747678) vcan0 600#00000000
(1780770040.747729) vcan0 601#00000000
(1780770040.747755) vcan0 602#7F000000
(1780770040.839669) vcan0 603#00
(1780770040.839742) vcan0 604#00
(1780770040.839776) vcan0 606#00
(1780770040.839803) vcan0 607#00000000
(1780770040.854839) vcan0 600#00000000
(1780770040.854877) vcan0 601#00000000
(1780770040.854897) vcan0 602#7F000000
(1780770040.999502) vcan0 600#00000000
(1780770040.999546) vcan0 601#00000000
(1780770040.999572) vcan0 602#7F000000
(1780770041.046755) vcan0 603#00
(1780770041.046787) vcan0 604#00
(1780770041.046806) vcan0 607#00000000
(1780770041.107843) vcan0 600#00000000
(1780770041.107878) vcan0 601#00000000
(1780770041.107897) vcan0 602#7F000000
(1780770041.223768) vcan0 600#00000000
(1780770041.223801) vcan0 601#00000000
(1780770041.223819) vcan0 602#7F000000
(1780770041.268153) vcan0 603#00
(1780770041.268211) vcan0 604#00
(1780770041.268247) vcan0 607#00000000
(1780770041.354028) vcan0 600#00000000
(1780770041.354086) vcan0 601#00000000
(1780770041.354111) vcan0 602#7F000000
(1780770041.354139) vcan0 606#00
(1780770041.462820) vcan0 600#00000000
(1780770041.462886) vcan0 601#00000000
(1780770041.462923) vcan0 602#7F000000
(1780770041.478684) vcan0 603#00
(1780770041.478706) vcan0 604#00
(1780770041.478722) vcan0 607#00000000
(1780770041.569729) vcan0 600#00000000
(1780770041.569760) vcan0 601#00000000
(1780770041.569779) vcan0 602#7F000000
(1780770041.703311) vcan0 600#00000000
(1780770041.703367) vcan0 601#00000000
(1780770041.703399) vcan0 602#7F000000
(1780770041.703429) vcan0 603#00
(1780770041.703458) vcan0 604#00
(1780770041.703487) vcan0 607#00000000
(1780770041.816747) vcan0 600#00000000
(1780770041.816779) vcan0 601#00000000
(1780770041.816799) vcan0 602#7F000000
(1780770041.864847) vcan0 606#00
(1780770041.912770) vcan0 603#00
(1780770041.912803) vcan0 604#00
(1780770041.912822) vcan0 607#00000000
(1780770041.958332) vcan0 600#00000000
(1780770041.958385) vcan0 601#00000000
(1780770041.958420) vcan0 602#7F000000
(1780770042.059794) vcan0 600#00000000
(1780770042.059827) vcan0 601#00000000
(1780770042.059847) vcan0 602#7F000000
(1780770042.138882) vcan0 603#00
(1780770042.138935) vcan0 604#00
(1780770042.138962) vcan0 607#00000000
(1780770042.170759) vcan0 600#33000000
(1780770042.170796) vcan0 601#00000000
(1780770042.170817) vcan0 602#7F000000
(1780770042.303041) vcan0 600#99000000
(1780770042.303111) vcan0 601#00000000
(1780770042.303143) vcan0 602#7F000000
(1780770042.351804) vcan0 603#00
(1780770042.351842) vcan0 604#00
(1780770042.351862) vcan0 607#00000000
(1780770042.393976) vcan0 606#00
(1780770042.409846) vcan0 600#FF000000
(1780770042.409927) vcan0 601#00000000
(1780770042.409948) vcan0 602#7F000000
(1780770042.510778) vcan0 600#FF000000
(1780770042.510811) vcan0 601#00000000
(1780770042.510829) vcan0 602#7F000000
(1780770042.571185) vcan0 603#00
(1780770042.571239) vcan0 604#00
(1780770042.571272) vcan0 607#00000000
(1780770042.652543) vcan0 600#FF000000
(1780770042.652592) vcan0 601#00000000
(1780770042.652620) vcan0 602#7F000000
(1780770042.766779) vcan0 600#FF000000
(1780770042.766814) vcan0 601#00000000
(1780770042.766833) vcan0 602#72000000
(1780770042.782737) vcan0 603#00
(1780770042.782764) vcan0 604#00
(1780770042.782784) vcan0 607#00000000
(1780770042.909018) vcan0 600#FF000000
(1780770042.909076) vcan0 601#00000000
(1780770042.909109) vcan0 602#65000000
(1780770042.909139) vcan0 606#00
(1780770043.004529) vcan0 603#00
(1780770043.004596) vcan0 604#00
(1780770043.004627) vcan0 607#00000000
(1780770043.019831) vcan0 600#FF000000
(1780770043.019867) vcan0 601#00000000
(1780770043.019887) vcan0 602#65000000
(1780770043.167853) vcan0 600#FF000000
(1780770043.167900) vcan0 601#00000000
(1780770043.167967) vcan0 602#7F000000
(1780770043.214777) vcan0 603#00
(1780770043.214812) vcan0 604#00
(1780770043.214833) vcan0 607#00000000
(1780770043.269842) vcan0 600#FF000000
(1780770043.269877) vcan0 601#00000000
(1780770043.269896) vcan0 602#7F000000
(1780770043.385775) vcan0 600#FF000000
(1780770043.385813) vcan0 601#00000000
(1780770043.385838) vcan0 602#7F000000
(1780770043.449465) vcan0 603#00
(1780770043.449513) vcan0 604#00
(1780770043.449554) vcan0 606#00
(1780770043.449587) vcan0 607#00000000
(1780770043.495762) vcan0 600#FF000000
(1780770043.495802) vcan0 601#00000000
(1780770043.495822) vcan0 602#8C000000
(1780770043.620188) vcan0 600#FF000000
(1780770043.620241) vcan0 601#00000000
(1780770043.620271) vcan0 602#8C000000
(1780770043.651763) vcan0 603#00
(1780770043.651795) vcan0 604#00
(1780770043.651813) vcan0 607#00000000
(1780770043.732823) vcan0 600#FF000000
(1780770043.732864) vcan0 601#00000000
(1780770043.732887) vcan0 602#7F000000
(1780770043.835769) vcan0 600#FF000000
(1780770043.835803) vcan0 601#00000000
(1780770043.835823) vcan0 602#7F000000
(1780770043.903102) vcan0 603#00
(1780770043.903134) vcan0 604#00
(1780770043.903156) vcan0 607#00000000
(1780770043.987627) vcan0 600#FF000000
(1780770043.987673) vcan0 601#00000000
(1780770043.987697) vcan0 602#7F000000
(1780770043.987723) vcan0 606#00
(1780770044.099823) vcan0 600#FF000000
(1780770044.099865) vcan0 601#00000000
(1780770044.099888) vcan0 602#7F000000
(1780770044.115684) vcan0 603#00
(1780770044.115707) vcan0 604#00
(1780770044.115725) vcan0 607#00000000
(1780770044.212733) vcan0 600#FF000000
(1780770044.212764) vcan0 601#00000000
(1780770044.212782) vcan0 602#7F000000
(1780770044.352213) vcan0 600#FF000000
(1780770044.352268) vcan0 601#00000000
(1780770044.352301) vcan0 602#7F000000
(1780770044.352329) vcan0 603#00
(1780770044.352353) vcan0 604#00
(1780770044.352378) vcan0 607#00000000
(1780770044.459783) vcan0 600#FF000000
(1780770044.459815) vcan0 601#00000000
(1780770044.459833) vcan0 602#7F000000
(1780770044.526415) vcan0 606#00
(1780770044.557769) vcan0 603#00
(1780770044.557801) vcan0 604#00
(1780770044.557820) vcan0 607#00000000
(1780770044.573682) vcan0 600#00000000
(1780770044.573705) vcan0 601#00000000
(1780770044.573722) vcan0 602#7F000000
(1780770044.718033) vcan0 600#4C000000
(1780770044.718121) vcan0 601#00000000
(1780770044.718148) vcan0 602#7F000000
(1780770044.765799) vcan0 603#00
(1780770044.765837) vcan0 604#00
(1780770044.765858) vcan0 607#00000000
(1780770044.829840) vcan0 600#CC000000
(1780770044.829881) vcan0 601#00000000
(1780770044.829900) vcan0 602#7F000000
(1780770044.936741) vcan0 600#00000000
(1780770044.936773) vcan0 601#00000000
(1780770044.936793) vcan0 602#7F000000
(1780770044.989402) vcan0 603#00
(1780770044.989483) vcan0 604#00
(1780770044.989532) vcan0 607#00000000
(1780770045.036776) vcan0 606#00
(1780770045.086904) vcan0 600#00000000
(1780770045.086977) vcan0 601#00000000
(1780770045.087006) vcan0 602#7F000000
(1780770045.194808) vcan0 600#00000000
(1780770045.194844) vcan0 601#00000000
(1780770045.194864) vcan0 602#7F000000
(1780770045.194882) vcan0 603#00
(1780770045.194897) vcan0 604#00
(1780770045.194917) vcan0 607#00000000
(1780770045.309818) vcan0 600#00000000
(1780770045.309860) vcan0 601#00000000
(1780770045.309884) vcan0 602#7F000000
(1780770045.401726) vcan0 603#00
(1780770045.401759) vcan0 604#00
(1780770045.401778) vcan0 607#00000000
(1780770045.457676) vcan0 600#00000000
(1780770045.457713) vcan0 601#00000000
(1780770045.457744) vcan0 602#7F000000
(1780770045.558394) vcan0 600#00000000
(1780770045.558490) vcan0 601#00000000
(1780770045.558530) vcan0 602#72000000
(1780770045.558569) vcan0 606#00
(1780770045.605771) vcan0 603#00
(1780770045.605811) vcan0 604#00
(1780770045.605831) vcan0 607#00000000
(1780770045.670790) vcan0 600#00000000
(1780770045.670829) vcan0 601#00000000
(1780770045.670852) vcan0 602#72000000
(1780770045.772804) vcan0 600#00000000
(1780770045.772843) vcan0 601#00000000
(1780770045.772863) vcan0 602#7F000000
(1780770045.849539) vcan0 603#00
(1780770045.849595) vcan0 604#00
(1780770045.849640) vcan0 607#00000000
(1780770045.880740) vcan0 600#00000000
(1780770045.880778) vcan0 601#00000000
(1780770045.880798) vcan0 602#7F000000
(1780770045.986755) vcan0 600#00000000
(1780770045.986795) vcan0 601#00000000
(1780770045.986816) vcan0 602#7F000000
(1780770046.062824) vcan0 603#00
(1780770046.062858) vcan0 604#00
(1780770046.062878) vcan0 606#00
(1780770046.062898) vcan0 607#00000000
(1780770046.136285) vcan0 600#00000000
(1780770046.136327) vcan0 601#00000000
(1780770046.136355) vcan0 602#7F000000
(1780770046.249865) vcan0 600#00000000
(1780770046.249935) vcan0 601#00000000
(1780770046.249967) vcan0 602#72000000
(1780770046.265825) vcan0 603#00
(1780770046.265861) vcan0 604#00
(1780770046.265883) vcan0 607#00000000
(1780770046.357822) vcan0 600#66000000
(1780770046.357858) vcan0 601#00000000
(1780770046.357878) vcan0 602#7F000000
(1780770046.462776) vcan0 600#CC000000
(1780770046.462813) vcan0 601#00000000
(1780770046.462833) vcan0 602#7F000000
(1780770046.478713) vcan0 603#00
(1780770046.478739) vcan0 604#00
(1780770046.478756) vcan0 607#00000000
(1780770046.571864) vcan0 600#FF000000
(1780770046.571918) vcan0 601#00000000
(1780770046.571949) vcan0 602#7F000000
(1780770046.571974) vcan0 606#00
(1780770046.684710) vcan0 600#FF000000
(1780770046.684756) vcan0 601#00000000
(1780770046.684780) vcan0 602#72000000
(1780770046.684800) vcan0 603#00
(1780770046.684819) vcan0 604#00
(1780770046.684835) vcan0 607#00000000
(1780770046.838966) vcan0 600#FF000000
(1780770046.839022) vcan0 601#00000000
(1780770046.839048) vcan0 602#72000000
(1780770046.933129) vcan0 603#00
(1780770046.933174) vcan0 604#00
(1780770046.933203) vcan0 607#00000000
(1780770046.948768) vcan0 600#FF000000
(1780770046.948800) vcan0 601#00000000
(1780770046.948818) vcan0 602#7F000000
(1780770047.056795) vcan0 600#FF000000
(1780770047.056835) vcan0 601#00000000
(1780770047.056859) vcan0 602#7F000000
(1780770047.072745) vcan0 606#00
(1780770047.135095) vcan0 603#00
(1780770047.135127) vcan0 604#00
(1780770047.135149) vcan0 607#00000000
(1780770047.166772) vcan0 600#FF000000
(1780770047.166804) vcan0 601#00000000
(1780770047.166822) vcan0 602#7F000000
(1780770047.277824) vcan0 600#FF000000
(1780770047.277865) vcan0 601#00000000
(1780770047.277887) vcan0 602#72000000
(1780770047.363681) vcan0 603#00
(1780770047.363737) vcan0 604#00
(1780770047.363765) vcan0 607#00000000
(1780770047.378829) vcan0 600#FF000000
(1780770047.378868) vcan0 601#00000000
(1780770047.378892) vcan0 602#65000000
(1780770047.481886) vcan0 600#FF000000
(1780770047.481959) vcan0 601#00000000
(1780770047.481987) vcan0 602#65000000
(1780770047.593603) vcan0 600#FF000000
(1780770047.593652) vcan0 601#00000000
(1780770047.593674) vcan0 602#59000000
(1780770047.593693) vcan0 603#00
(1780770047.593712) vcan0 604#00
(1780770047.593732) vcan0 606#00
(1780770047.593748) vcan0 607#00000000
(1780770047.705356) vcan0 600#FF000000
(1780770047.705395) vcan0 601#00000000
(1780770047.705417) vcan0 602#59000000
(1780770047.830518) vcan0 600#FF000000
(1780770047.830565) vcan0 601#00000000
(1780770047.830595) vcan0 602#4C000000
(1780770047.830621) vcan0 603#00
(1780770047.830646) vcan0 604#00
(1780770047.830666) vcan0 607#00000000
(1780770047.956603) vcan0 600#FF000000
(1780770047.956654) vcan0 601#00000000
(1780770047.956683) vcan0 602#4C000000
(1780770048.071677) vcan0 600#FF000000
(1780770048.071755) vcan0 601#00000000
(1780770048.071784) vcan0 602#7F000000
(1780770048.071815) vcan0 603#00
(1780770048.071840) vcan0 604#00
(1780770048.071866) vcan0 607#00000000
(1780770048.102749) vcan0 606#00
(1780770048.205882) vcan0 600#FF000000
(1780770048.205939) vcan0 601#00000000
(1780770048.205975) vcan0 602#7F000000
(1780770048.348854) vcan0 600#FF000000
(1780770048.348903) vcan0 601#00000000
(1780770048.348948) vcan0 602#7F000000
(1780770048.348987) vcan0 603#00
(1780770048.349013) vcan0 604#00
(1780770048.349045) vcan0 607#00000000
(1780770048.511193) vcan0 600#FF000000
(1780770048.511241) vcan0 601#00000000
(1780770048.511271) vcan0 602#7F000000
(1780770048.558815) vcan0 603#00
(1780770048.558861) vcan0 604#00
(1780770048.558884) vcan0 607#00000000
(1780770048.668457) vcan0 600#FF000000
(1780770048.668506) vcan0 601#00000000
(1780770048.668534) vcan0 602#7F000000
(1780770048.668571) vcan0 606#00
(1780770048.823899) vcan0 600#FF000000
(1780770048.823970) vcan0 601#00000000
(1780770048.824004) vcan0 602#7F000000
(1780770048.824034) vcan0 603#00
(1780770048.824060) vcan0 604#00
(1780770048.824088) vcan0 607#00000000
(1780770048.996472) vcan0 600#FF000000
(1780770048.996540) vcan0 601#00000000
(1780770048.996571) vcan0 602#8C000000
(1780770049.027797) vcan0 603#00
(1780770049.027839) vcan0 604#00
(1780770049.027862) vcan0 607#00000000
(1780770049.165792) vcan0 600#FF000000
(1780770049.165865) vcan0 601#00000000
(1780770049.165899) vcan0 602#7F000000
(1780770049.180781) vcan0 606#00
(1780770049.342563) vcan0 600#FF000000
(1780770049.342681) vcan0 601#00000000
(1780770049.342715) vcan0 602#7F000000
(1780770049.342743) vcan0 603#00
(1780770049.342769) vcan0 604#00
(1780770049.342803) vcan0 607#00000000
(1780770049.518896) vcan0 600#FF000000
(1780770049.518958) vcan0 601#00000000
(1780770049.518987) vcan0 602#7F000000
(1780770049.550860) vcan0 603#00
(1780770049.550907) vcan0 604#00
(1780770049.550939) vcan0 607#00000000
(1780770049.693329) vcan0 600#FF000000
(1780770049.693378) vcan0 601#00000000
(1780770049.693416) vcan0 602#7F000000
(1780770049.693455) vcan0 606#00
(1780770049.882071) vcan0 600#FF000000
(1780770049.882130) vcan0 601#00000000
(1780770049.882158) vcan0 602#7F000000
(1780770049.882184) vcan0 603#00
(1780770049.882208) vcan0 604#00
(1780770049.882232) vcan0 607#00000000
(1780770050.069323) vcan0 600#FF000000
(1780770050.069391) vcan0 601#00000000
(1780770050.069423) vcan0 602#7F000000
(1780770050.084814) vcan0 603#00
(1780770050.084850) vcan0 604#00
(1780770050.084869) vcan0 607#00000000
(1780770050.262658) vcan0 600#FF000000
(1780770050.262722) vcan0 601#00000000
(1780770050.262749) vcan0 602#72000000
(1780770050.262775) vcan0 606#00
(1780770050.293721) vcan0 603#00
(1780770050.293764) vcan0 604#00
(1780770050.293785) vcan0 607#00000000
(1780770050.454072) vcan0 600#FF000000
(1780770050.454112) vcan0 601#00000000
(1780770050.454138) vcan0 602#65000000
(1780770050.500750) vcan0 603#00
(1780770050.500789) vcan0 604#00
(1780770050.500814) vcan0 607#00000000
(1780770050.644574) vcan0 600#FF000000
(1780770050.644615) vcan0 601#00000000
(1780770050.644641) vcan0 602#7F000000
(1780770050.843316) vcan0 600#FF000000
(1780770050.843370) vcan0 601#00000000
(1780770050.843401) vcan0 602#7F000000
(1780770050.843428) vcan0 603#00
(1780770050.843457) vcan0 604#00
(1780770050.843487) vcan0 606#00
(1780770050.843513) vcan0 607#00000000
(1780770051.034126) vcan0 600#FF000000
(1780770051.034176) vcan0 601#00000000
(1780770051.034200) vcan0 602#7F000000
(1780770051.049813) vcan0 603#00
(1780770051.049855) vcan0 604#00
(1780770051.049879) vcan0 607#00000000
(1780770051.232337) vcan0 600#FF000000
(1780770051.232369) vcan0 601#00000000
(1780770051.232389) vcan0 602#72000000
(1780770051.263720) vcan0 603#00
(1780770051.263756) vcan0 604#00
(1780770051.263777) vcan0 607#00000000
(1780770051.427354) vcan0 600#FF000000
(1780770051.427428) vcan0 601#00000000
(1780770051.427472) vcan0 602#65000000
(1780770051.427512) vcan0 606#00
(1780770051.619258) vcan0 600#FF000000
(1780770051.619312) vcan0 601#00000000
(1780770051.619337) vcan0 602#7F000000
(1780770051.619364) vcan0 603#00
(1780770051.619385) vcan0 604#00
(1780770051.619407) vcan0 607#00000000
(1780770051.826109) vcan0 600#FF000000
(1780770051.826152) vcan0 601#00000000
(1780770051.826180) vcan0 602#7F000000
(1780770051.826207) vcan0 603#00
(1780770051.826229) vcan0 604#00
(1780770051.826252) vcan0 607#00000000
(1780770052.033538) vcan0 600#FF000000
(1780770052.033578) vcan0 601#00000000
(1780770052.033606) vcan0 602#7F000000
(1780770052.033632) vcan0 603#00
(1780770052.033650) vcan0 604#00
(1780770052.033671) vcan0 606#00
(1780770052.033687) vcan0 607#00000000
(1780770052.249803) vcan0 600#FF000000
(1780770052.249857) vcan0 601#00000000
(1780770052.249888) vcan0 602#7F000000
(1780770052.249922) vcan0 603#00
(1780770052.249946) vcan0 604#00
(1780770052.249970) vcan0 607#00000000
(1780770052.457419) vcan0 600#FF000000
(1780770052.457482) vcan0 601#00000000
(1780770052.457510) vcan0 602#7F000000
(1780770052.457531) vcan0 603#00
(1780770052.457556) vcan0 604#00
(1780770052.457587) vcan0 607#00000000
(1780770052.660187) vcan0 600#FF000000
(1780770052.660246) vcan0 601#00000000
(1780770052.660277) vcan0 602#7F000000
(1780770052.660309) vcan0 603#00
(1780770052.660348) vcan0 604#00
(1780770052.660384) vcan0 606#00
(1780770052.660412) vcan0 607#00000000
(1780770052.871929) vcan0 600#FF000000
(1780770052.871989) vcan0 601#00000000
(1780770052.872028) vcan0 602#7F000000
(1780770052.872065) vcan0 603#00
(1780770052.872102) vcan0 604#00
(1780770052.872134) vcan0 607#00000000
(1780770053.078522) vcan0 600#FF000000
(1780770053.078570) vcan0 601#00000000
(1780770053.078594) vcan0 602#7F000000
(1780770053.078616) vcan0 603#00
(1780770053.078639) vcan0 604#00
(1780770053.078659) vcan0 607#00000000
(1780770053.306991) vcan0 600#FF000000
(1780770053.307121) vcan0 601#00000000
(1780770053.307167) vcan0 602#8C000000
(1780770053.307205) vcan0 603#00
(1780770053.307237) vcan0 604#00
(1780770053.307267) vcan0 606#00
(1780770053.307294) vcan0 607#00000000
(1780770053.521800) vcan0 600#FF000000
(1780770053.521850) vcan0 601#00000000
(1780770053.521877) vcan0 602#7F000000
(1780770053.521904) vcan0 603#00
(1780770053.521936) vcan0 604#00
(1780770053.521964) vcan0 607#00000000
(1780770053.730272) vcan0 600#FF000000
(1780770053.730326) vcan0 601#00000000
(1780770053.730358) vcan0 602#7F000000
(1780770053.730389) vcan0 603#00
(1780770053.730416) vcan0 604#00
(1780770053.730437) vcan0 607#00000000
(1780770053.968354) vcan0 600#FF000000
(1780770053.968424) vcan0 601#00000000
(1780770053.968457) vcan0 602#7F000000
(1780770053.968498) vcan0 603#00
(1780770053.968521) vcan0 604#00
(1780770053.968555) vcan0 606#00
(1780770053.968584) vcan0 607#00000000
(1780770054.192969) vcan0 600#FF000000
(1780770054.193026) vcan0 601#00000000
(1780770054.193057) vcan0 602#8C000000
(1780770054.193084) vcan0 603#00
(1780770054.193109) vcan0 604#00
(1780770054.193132) vcan0 607#00000000
(1780770054.427732) vcan0 600#FF000000
(1780770054.427801) vcan0 601#00000000
(1780770054.427844) vcan0 602#7F000000
(1780770054.427878) vcan0 603#00
(1780770054.427914) vcan0 604#00
(1780770054.427949) vcan0 607#00000000
(1780770054.474767) vcan0 606#00
(1780770054.663240) vcan0 600#FF000000
(1780770054.663280) vcan0 601#00000000
(1780770054.663311) vcan0 602#7F000000
(1780770054.663336) vcan0 603#00
(1780770054.663358) vcan0 604#00
(1780770054.663383) vcan0 607#00000000
(1780770054.888681) vcan0 600#FF000000
(1780770054.888744) vcan0 601#00000000
(1780770054.888778) vcan0 602#7F000000
(1780770054.888814) vcan0 603#00
(1780770054.888852) vcan0 604#00
(1780770054.888889) vcan0 607#00000000
(1780770055.121428) vcan0 600#00000000
(1780770055.121461) vcan0 601#00000000
(1780770055.121480) vcan0 602#7F000000
(1780770055.121497) vcan0 603#00
(1780770055.121512) vcan0 604#00
(1780770055.121528) vcan0 606#00
(1780770055.121542) vcan0 607#00000000
(1780770055.342770) vcan0 600#00000000
(1780770055.342821) vcan0 601#00000000
(1780770055.342853) vcan0 602#7F000000
(1780770055.342880) vcan0 603#00
(1780770055.342900) vcan0 604#00
(1780770055.342930) vcan0 607#00000000
(1780770055.564034) vcan0 600#00000000
(1780770055.564082) vcan0 601#00000000
(1780770055.564107) vcan0 602#7F000000
(1780770055.564128) vcan0 603#00
(1780770055.564147) vcan0 604#00
(1780770055.564167) vcan0 607#00000000
(1780770055.579878) vcan0 60D#08000000
(1780770055.776975) vcan0 600#00000000
(1780770055.777052) vcan0 601#CC000000
(1780770055.777095) vcan0 602#7F000000
(1780770055.777128) vcan0 603#00
(1780770055.777155) vcan0 604#00
(1780770055.777188) vcan0 606#00
(1780770055.777214) vcan0 607#00000000
(1780770055.992055) vcan0 600#00000000
(1780770055.992119) vcan0 601#FF000000
(1780770055.992154) vcan0 602#7F000000
(1780770055.992181) vcan0 603#00
(1780770055.992211) vcan0 604#00
(1780770055.992238) vcan0 607#00000000
(1780770056.007830) vcan0 60D#00000000
(1780770056.023733) vcan0 60D#08000000
(1780770056.233854) vcan0 600#00000000
(1780770056.233899) vcan0 601#99000000
(1780770056.233931) vcan0 602#7F000000
(1780770056.233953) vcan0 603#00
(1780770056.233979) vcan0 604#00
(1780770056.234009) vcan0 607#00000000
(1780770056.281761) vcan0 606#00
(1780770056.456375) vcan0 600#00000000
(1780770056.456417) vcan0 601#FF000000
(1780770056.456445) vcan0 602#7F000000
(1780770056.456471) vcan0 603#00
(1780770056.456498) vcan0 604#00
(1780770056.456526) vcan0 607#00000000
(1780770056.671090) vcan0 600#00000000
(1780770056.671136) vcan0 601#FF000000
(1780770056.671164) vcan0 602#7F000000
(1780770056.671188) vcan0 603#00
(1780770056.671208) vcan0 604#00
(1780770056.671229) vcan0 607#00000000
(1780770056.686849) vcan0 60D#00000000
(1780770056.876708) vcan0 600#00000000
(1780770056.876763) vcan0 601#00000000
(1780770056.876796) vcan0 602#7F000000
(1780770056.876825) vcan0 603#00
(1780770056.876853) vcan0 604#00
(1780770056.876885) vcan0 606#00
(1780770056.876924) vcan0 607#00000000
(1780770057.060243) vcan0 600#00000000
(1780770057.060301) vcan0 601#00000000
(1780770057.060338) vcan0 602#7F000000
(1780770057.091707) vcan0 603#00
(1780770057.091740) vcan0 604#00
(1780770057.091759) vcan0 607#00000000
(1780770057.243539) vcan0 600#00000000
(1780770057.243592) vcan0 601#00000000
(1780770057.243629) vcan0 602#7F000000
(1780770057.414160) vcan0 600#00000000
(1780770057.414214) vcan0 601#00000000
(1780770057.414242) vcan0 602#7F000000
(1780770057.414266) vcan0 603#00
(1780770057.414285) vcan0 604#00
(1780770057.414307) vcan0 606#00
(1780770057.414327) vcan0 607#00000000
(1780770057.588482) vcan0 600#00000000
(1780770057.588533) vcan0 601#00000000
(1780770057.588562) vcan0 602#7F000000
(1780770057.603792) vcan0 60D#08000000
(1780770057.619651) vcan0 603#00
(1780770057.619679) vcan0 604#00
(1780770057.619697) vcan0 607#00000000
(1780770057.758292) vcan0 600#00000000
(1780770057.758347) vcan0 601#CC000000
(1780770057.758382) vcan0 602#7F000000
(1780770057.912478) vcan0 600#00000000
(1780770057.912542) vcan0 601#FF000000
(1780770057.912579) vcan0 602#7F000000
(1780770057.912614) vcan0 603#00
(1780770057.912641) vcan0 604#00
(1780770057.912667) vcan0 607#00000000
(1780770057.927931) vcan0 606#00
(1780770058.084079) vcan0 600#00000000
(1780770058.084126) vcan0 601#FF000000
(1780770058.084152) vcan0 602#7F000000
(1780770058.115672) vcan0 603#00
(1780770058.115716) vcan0 604#00
(1780770058.115740) vcan0 607#00000000
(1780770058.249262) vcan0 600#00000000
(1780770058.249309) vcan0 601#FF000000
(1780770058.249340) vcan0 602#7F000000
(1780770058.421166) vcan0 600#00000000
(1780770058.421217) vcan0 601#FF000000
(1780770058.421243) vcan0 602#7F000000
(1780770058.421266) vcan0 603#00
(1780770058.421287) vcan0 604#00
(1780770058.421309) vcan0 607#00000000
(1780770058.436921) vcan0 606#00
(1780770058.590261) vcan0 600#00000000
(1780770058.590328) vcan0 601#FF000000
(1780770058.590367) vcan0 602#8C000000
(1780770058.605746) vcan0 60D#00000000
(1780770058.621816) vcan0 603#00
(1780770058.621860) vcan0 604#00
(1780770058.621885) vcan0 607#00000000
(1780770058.751115) vcan0 600#00000000
(1780770058.751157) vcan0 601#00000000
(1780770058.751189) vcan0 602#99000000
(1780770058.924776) vcan0 600#00000000
(1780770058.924830) vcan0 601#00000000
(1780770058.924861) vcan0 602#7F000000
(1780770058.924885) vcan0 603#00
(1780770058.924909) vcan0 604#00
(1780770058.924953) vcan0 607#00000000
(1780770058.940772) vcan0 606#00
(1780770059.100620) vcan0 600#00000000
(1780770059.100665) vcan0 601#00000000
(1780770059.100700) vcan0 602#7F000000
(1780770059.115757) vcan0 60D#08000000
(1780770059.131686) vcan0 603#00
(1780770059.131724) vcan0 604#00
(1780770059.131745) vcan0 607#00000000
(1780770059.285931) vcan0 600#00000000
(1780770059.285989) vcan0 601#CC000000
(1780770059.286027) vcan0 602#8C000000
(1780770059.334708) vcan0 603#00
(1780770059.334763) vcan0 604#00
(1780770059.334796) vcan0 607#00000000
(1780770059.463666) vcan0 600#00000000
(1780770059.463728) vcan0 601#FF000000
(1780770059.463764) vcan0 602#99000000
(1780770059.463799) vcan0 606#00
(1780770059.478719) vcan0 60D#00000000
(1780770059.635329) vcan0 600#00000000
(1780770059.635372) vcan0 601#00000000
(1780770059.635395) vcan0 602#7F000000
(1780770059.635420) vcan0 603#00
(1780770059.635443) vcan0 604#00
(1780770059.635467) vcan0 607#00000000
(1780770059.819499) vcan0 600#00000000
(1780770059.819579) vcan0 601#00000000
(1780770059.819619) vcan0 602#7F000000
(1780770059.850661) vcan0 603#00
(1780770059.850695) vcan0 604#00
(1780770059.850715) vcan0 607#00000000
(1780770059.991968) vcan0 600#00000000
(1780770059.992009) vcan0 601#00000000
(1780770059.992031) vcan0 602#7F000000
(1780770059.992060) vcan0 606#00
(1780770060.171078) vcan0 600#00000000
(1780770060.171152) vcan0 601#00000000
(1780770060.171175) vcan0 602#7F000000
(1780770060.171202) vcan0 603#00
(1780770060.171226) vcan0 604#00
(1780770060.171253) vcan0 607#00000000
(1780770060.327266) vcan0 600#00000000
(1780770060.327326) vcan0 601#00000000
(1780770060.327358) vcan0 602#7F000000
(1780770060.468980) vcan0 600#00000000
(1780770060.469026) vcan0 601#00000000
(1780770060.469056) vcan0 602#7F000000
(1780770060.469088) vcan0 603#00
(1780770060.469114) vcan0 604#00
(1780770060.469143) vcan0 607#00000000
(1780770060.499700) vcan0 606#00
(1780770060.622000) vcan0 600#00000000
(1780770060.622034) vcan0 601#00000000
(1780770060.622062) vcan0 602#7F000000
(1780770060.669647) vcan0 603#00
(1780770060.669686) vcan0 604#00
(1780770060.669714) vcan0 607#00000000
(1780770060.765627) vcan0 600#00000000
(1780770060.765672) vcan0 601#00000000
(1780770060.765698) vcan0 602#7F000000
(1780770060.914537) vcan0 600#00000000
(1780770060.914579) vcan0 601#00000000
(1780770060.914605) vcan0 602#7F000000
(1780770060.914632) vcan0 603#00
(1780770060.914656) vcan0 604#00
(1780770060.914680) vcan0 607#00000000
(1780770061.051672) vcan0 600#00000000
(1780770061.051728) vcan0 601#00000000
(1780770061.051754) vcan0 602#7F000000
(1780770061.051780) vcan0 606#00
(1780770061.066693) vcan0 60D#08000000
(1780770061.176596) vcan0 600#00000000
(1780770061.176644) vcan0 601#99000000
(1780770061.176669) vcan0 602#7F000000
(1780770061.176691) vcan0 603#00
(1780770061.176725) vcan0 604#00
(1780770061.176755) vcan0 607#00000000
(1780770061.313202) vcan0 600#00000000
(1780770061.313247) vcan0 601#FF000000
(1780770061.313277) vcan0 602#7F000000
(1780770061.445806) vcan0 600#00000000
(1780770061.445857) vcan0 601#FF000000
(1780770061.445885) vcan0 602#7F000000
(1780770061.445919) vcan0 603#00
(1780770061.445944) vcan0 604#00
(1780770061.445969) vcan0 607#00000000
(1780770061.586067) vcan0 600#00000000
(1780770061.586125) vcan0 601#FF000000
(1780770061.586169) vcan0 602#7F000000
(1780770061.586200) vcan0 606#00
(1780770061.718317) vcan0 600#00000000
(1780770061.718377) vcan0 601#FF000000
(1780770061.718411) vcan0 602#7F000000
(1780770061.718450) vcan0 603#00
(1780770061.718474) vcan0 604#00
(1780770061.718498) vcan0 607#00000000
(1780770061.733677) vcan0 60D#00000000
(1780770061.840413) vcan0 600#00000000
(1780770061.840496) vcan0 601#00000000
(1780770061.840535) vcan0 602#7F000000
(1780770061.982022) vcan0 600#00000000
(1780770061.982064) vcan0 601#00000000
(1780770061.982092) vcan0 602#7F000000
(1780770061.982115) vcan0 603#00
(1780770061.982141) vcan0 604#00
(1780770061.982170) vcan0 607#00000000
(1780770062.110375) vcan0 600#00000000
(1780770062.110452) vcan0 601#00000000
(1780770062.110484) vcan0 602#7F000000
(1780770062.110519) vcan0 606#00
(1780770062.244420) vcan0 600#00000000
(1780770062.244471) vcan0 601#00000000
(1780770062.244500) vcan0 602#7F000000
(1780770062.244528) vcan0 603#00
(1780770062.244558) vcan0 604#00
(1780770062.244591) vcan0 607#00000000
(1780770062.375225) vcan0 600#00000000
(1780770062.375290) vcan0 601#00000000
(1780770062.375322) vcan0 602#7F000000
(1780770062.497146) vcan0 600#00000000
(1780770062.497197) vcan0 601#00000000
(1780770062.497226) vcan0 602#7F000000
(1780770062.497257) vcan0 603#00
(1780770062.497279) vcan0 604#00
(1780770062.497302) vcan0 607#00000000
(1780770062.634489) vcan0 600#00000000
(1780770062.634554) vcan0 601#00000000
(1780770062.634588) vcan0 602#7F000000
(1780770062.634624) vcan0 606#00
(1780770062.766696) vcan0 600#00000000
(1780770062.766763) vcan0 601#00000000
(1780770062.766797) vcan0 602#72000000
(1780770062.766832) vcan0 603#00
(1780770062.766860) vcan0 604#00
(1780770062.766886) vcan0 607#00000000
(1780770062.901553) vcan0 600#00000000
(1780770062.901610) vcan0 601#00000000
(1780770062.901645) vcan0 602#7F000000
(1780770063.029435) vcan0 600#00000000
(1780770063.029490) vcan0 601#00000000
(1780770063.029516) vcan0 602#7F000000
(1780770063.029546) vcan0 603#00
(1780770063.029566) vcan0 604#00
(1780770063.029587) vcan0 607#00000000
(1780770063.150534) vcan0 600#00000000
(1780770063.150580) vcan0 601#00000000
(1780770063.150603) vcan0 602#7F000000
(1780770063.150629) vcan0 606#00
(1780770063.289135) vcan0 600#00000000
(1780770063.289192) vcan0 601#00000000
(1780770063.289232) vcan0 602#72000000
(1780770063.289265) vcan0 603#00
(1780770063.289296) vcan0 604#00
(1780770063.289330) vcan0 607#00000000
(1780770063.416790) vcan0 600#00000000
(1780770063.416832) vcan0 601#00000000
(1780770063.416855) vcan0 602#7F000000
(1780770063.552421) vcan0 600#00000000
(1780770063.552475) vcan0 601#00000000
(1780770063.552512) vcan0 602#7F000000
(1780770063.552543) vcan0 603#00
(1780770063.552577) vcan0 604#00
(1780770063.552614) vcan0 607#00000000
(1780770063.682841) vcan0 600#00000000
(1780770063.682877) vcan0 601#00000000
(1780770063.682902) vcan0 602#72000000
(1780770063.682938) vcan0 606#00
(1780770063.804596) vcan0 600#00000000
(1780770063.804638) vcan0 601#00000000
(1780770063.804668) vcan0 602#7F000000
(1780770063.804690) vcan0 603#00
(1780770063.804709) vcan0 604#00
(1780770063.804735) vcan0 607#00000000
(1780770063.940213) vcan0 600#00000000
(1780770063.940254) vcan0 601#00000000
(1780770063.940279) vcan0 602#7F000000
(1780770064.070865) vcan0 600#00000000
(1780770064.070921) vcan0 601#00000000
(1780770064.070950) vcan0 602#7F000000
(1780770064.070972) vcan0 603#00
(1780770064.070993) vcan0 604#00
(1780770064.071022) vcan0 607#00000000
(1780770064.204144) vcan0 600#33000000
(1780770064.204195) vcan0 601#00000000
(1780770064.204222) vcan0 602#7F000000
(1780770064.204247) vcan0 606#00
(1780770064.332531) vcan0 600#99000000
(1780770064.332599) vcan0 601#00000000
(1780770064.332626) vcan0 602#7F000000
(1780770064.332654) vcan0 603#00
(1780770064.332678) vcan0 604#00
(1780770064.332709) vcan0 607#00000000
(1780770064.453137) vcan0 600#E5000000
(1780770064.453188) vcan0 601#00000000
(1780770064.453217) vcan0 602#7F000000
(1780770064.586115) vcan0 600#FF000000
(1780770064.586169) vcan0 601#00000000
(1780770064.586198) vcan0 602#7F000000
(1780770064.586229) vcan0 603#00
(1780770064.586254) vcan0 604#00
(1780770064.586278) vcan0 607#00000000
(1780770064.713596) vcan0 600#FF000000
(1780770064.713663) vcan0 601#00000000
(1780770064.713696) vcan0 602#7F000000
(1780770064.713734) vcan0 606#00
(1780770064.846723) vcan0 600#FF000000
(1780770064.846770) vcan0 601#00000000
(1780770064.846798) vcan0 602#7F000000
(1780770064.846821) vcan0 603#00
(1780770064.846840) vcan0 604#00
(1780770064.846864) vcan0 607#00000000
(1780770064.973650) vcan0 600#FF000000
(1780770064.973709) vcan0 601#00000000
(1780770064.973736) vcan0 602#7F000000
(1780770065.092973) vcan0 600#FF000000
(1780770065.093019) vcan0 601#00000000
(1780770065.093043) vcan0 602#7F000000
(1780770065.093069) vcan0 603#00
(1780770065.093089) vcan0 604#00
(1780770065.093113) vcan0 607#00000000
(1780770065.229700) vcan0 600#FF000000
(1780770065.229766) vcan0 601#00000000
(1780770065.229804) vcan0 602#7F000000
(1780770065.229843) vcan0 606#00
(1780770065.360312) vcan0 600#FF000000
(1780770065.360380) vcan0 601#00000000
(1780770065.360425) vcan0 602#7F000000
(1780770065.360462) vcan0 603#00
(1780770065.360497) vcan0 604#00
(1780770065.360521) vcan0 607#00000000
(1780770065.496570) vcan0 600#FF000000
(1780770065.496645) vcan0 601#00000000
(1780770065.496681) vcan0 602#7F000000
(1780770065.626722) vcan0 600#FF000000
(1780770065.626763) vcan0 601#00000000
(1780770065.626794) vcan0 602#7F000000
(1780770065.626819) vcan0 603#00
(1780770065.626841) vcan0 604#00
(1780770065.626863) vcan0 607#00000000
(1780770065.750648) vcan0 600#FF000000
(1780770065.750723) vcan0 601#00000000
(1780770065.750757) vcan0 602#7F000000
(1780770065.750795) vcan0 606#00
(1780770065.890793) vcan0 600#FF000000
(1780770065.890851) vcan0 601#00000000
(1780770065.890890) vcan0 602#7F000000
(1780770065.890943) vcan0 603#00
(1780770065.890986) vcan0 604#00
(1780770065.891022) vcan0 607#00000000
(1780770066.022200) vcan0 600#FF000000
(1780770066.022245) vcan0 601#00000000
(1780770066.022272) vcan0 602#7F000000
(1780770066.158098) vcan0 600#00000000
(1780770066.158149) vcan0 601#00000000
(1780770066.158185) vcan0 602#7F000000
(1780770066.158215) vcan0 603#00
(1780770066.158286) vcan0 604#00
(1780770066.158331) vcan0 607#00000000
(1780770066.288375) vcan0 600#00000000
(1780770066.288419) vcan0 601#00000000
(1780770066.288445) vcan0 602#7F000000
(1780770066.288478) vcan0 606#00
(1780770066.410611) vcan0 600#00000000
(1780770066.410661) vcan0 601#00000000
(1780770066.410688) vcan0 602#7F000000
(1780770066.410715) vcan0 603#00
(1780770066.410742) vcan0 604#00
(1780770066.410765) vcan0 607#00000000
(1780770066.553575) vcan0 600#00000000
(1780770066.553631) vcan0 601#00000000
(1780770066.553660) vcan0 602#7F000000
(1780770066.683248) vcan0 600#00000000
(1780770066.683305) vcan0 601#00000000
(1780770066.683336) vcan0 602#7F000000
(1780770066.683367) vcan0 603#00
(1780770066.683392) vcan0 604#00
(1780770066.683418) vcan0 607#00000000
(1780770066.820228) vcan0 600#00000000
(1780770066.820281) vcan0 601#00000000
(1780770066.820306) vcan0 602#7F000000
(1780770066.820336) vcan0 606#00
(1780770066.950043) vcan0 600#00000000
(1780770066.950097) vcan0 601#00000000
(1780770066.950123) vcan0 602#7F000000
(1780770066.950149) vcan0 603#00
(1780770066.950173) vcan0 604#00
(1780770066.950198) vcan0 607#00000000
(1780770067.072502) vcan0 600#00000000
(1780770067.072578) vcan0 601#00000000
(1780770067.072608) vcan0 602#7F000000
(1780770067.209136) vcan0 600#00000000
(1780770067.209184) vcan0 601#00000000
(1780770067.209212) vcan0 602#7F000000
(1780770067.209240) vcan0 603#00
(1780770067.209278) vcan0 604#00
(1780770067.209315) vcan0 607#00000000
(1780770067.338833) vcan0 600#00000000
(1780770067.338917) vcan0 601#00000000
(1780770067.338967) vcan0 602#7F000000
(1780770067.339005) vcan0 606#00
(1780770067.476602) vcan0 600#00000000
(1780770067.476659) vcan0 601#00000000
(1780770067.476689) vcan0 602#7F000000
(1780770067.476721) vcan0 603#00
(1780770067.476748) vcan0 604#00
(1780770067.476778) vcan0 607#00000000
